
T2C08 000:058 SEGGER J-Link V6.12g Log File (0001ms, 0033ms total)
T2C08 000:058 DLL Compiled: Jan 27 2017 18:18:51 (0001ms, 0033ms total)
T2C08 000:058 Logging started @ 2017-03-08 10:08 (0001ms, 0033ms total)
T2C08 000:059 JLINK_SetWarnOutHandler(...) (0000ms, 0033ms total)
T2C08 000:059 JLINK_OpenEx(...)SERVER_Parent Server (S/N 591067027) is using protocol version 51204 which is too old (>= 54110 required). Closing connection to server. (0010ms, 0043ms total)
T2C08 000:059 
Firmware: J-Link Lite-XMC4200 Rev.1 compiled Jan 14 2016 11:19:27
Hardware: V1.00
S/N: 591067027WEBSRV Webserver running on local port 19080 (0021ms, 0054ms total)
T2C08 000:059   returns O.K. (0021ms, 0054ms total)
T2C08 000:080 JLINK_SetErrorOutHandler(...) (0000ms, 0054ms total)
T2C08 000:080 JLINK_ExecCommand("ProjectFile = "C:\Users\kacpe\Dropbox\Year 2\semester2\embedded\PWM\JLinkSettings.ini"", ...). C:\Program Files (x86)\SEGGER\JLink_V612g\JLinkDevices.xml evaluated successfully.  returns 0x00 (0204ms, 0258ms total)
T2C08 000:284 JLINK_ExecCommand("Device = XMC1100-Q024x0064", ...). Device "XMC1100-0064" selected.  returns 0x00 (0002ms, 0260ms total)
T2C08 000:286 JLINK_ExecCommand("DisableConnectionTimeout", ...).   returns 0x01 (0000ms, 0260ms total)
T2C08 000:286 JLINK_GetHardwareVersion()  returns 0x2710 (0000ms, 0260ms total)
T2C08 000:286 JLINK_GetDLLVersion()  returns 61207 (0000ms, 0260ms total)
T2C08 000:286 JLINK_GetFirmwareString(...) (0000ms, 0260ms total)
T2C08 000:286 JLINK_GetDLLVersion()  returns 61207 (0000ms, 0260ms total)
T2C08 000:287 JLINK_GetCompileDateTime() (0000ms, 0260ms total)
T2C08 000:287 JLINK_GetFirmwareString(...) (0000ms, 0260ms total)
T2C08 000:287 JLINK_GetHardwareVersion()  returns 0x2710 (0000ms, 0260ms total)
T2C08 000:287 JLINK_TIF_Select(JLINKARM_TIF_SWD)  returns 0x00 (0001ms, 0261ms total)
T2C08 000:288 JLINK_SetSpeed(5000) (0000ms, 0261ms total)
T2C08 000:288 JLINK_GetId()Performing XMC1000 connection sequence.Firmware of connected J-Link (S/N 591067027) is too old and does not support connect for this device. Debugging may not be reliableTrying to identify target via SPD >0x108 TIF>Could not identify target via SPD. Trying again via SWD. >0x108 TIF>Found SWD-DP with ID 0x0BB11477 >0x0D TIF> >0x28 TIF> >0x0D TIF> >0x28 TIF> >0x0D TIF> >0x28 TIF> >0x0D TIF> >0x28 TIF> >0x0D TIF> >0x21 TIF> >0x0D TIF> >0x28 TIF> >0x0D TIF> >0x28 TIF> >0x0D TIF>
 >0x21 TIF> >0x0D TIF> >0x21 TIF> >0x0D TIF> >0x21 TIF>AP-IDR: 0x04770021, Type: AHB-APAHB-AP ROM: 0xF0000000 (Base addr. of first ROM table) >0x0D TIF> >0x28 TIF> >0x0D TIF> >0x28 TIF> >0x0D TIF> >0x28 TIF> >0x0D TIF> >0x21 TIF> >0x0D TIF> >0x21 TIF> >0x0D TIF> >0x28 TIF> >0x0D TIF> >0x21 TIF> >0x0D TIF> >0x21 TIF>Found Cortex-M0 r0p0, Little endian. -- CPU_ReadMem(4 bytes @ 0xE000EDF0) -- CPU_ReadMem(4 bytes @ 0xE0002000)FPUnit: 4 code (BP) slots and 0 literal slots -- CPU_ReadMem(4 bytes @ 0xE000EDFC)
 -- CPU_ReadMem(4 bytes @ 0xE0001000) -- CPU_WriteMem(4 bytes @ 0xE0001000)CoreSight components:ROMTbl 0 @ F0000000 -- CPU_ReadMem(16 bytes @ 0xF0000000) -- CPU_ReadMem(16 bytes @ 0xE00FFFF0) -- CPU_ReadMem(16 bytes @ 0xE00FFFE0)ROMTbl 0 [0]: F00FF000, CID: B105100D, PID: 000BB471 ROM TableROMTbl 1 @ E00FF000 -- CPU_ReadMem(16 bytes @ 0xE00FF000) -- CPU_ReadMem(16 bytes @ 0xE000EFF0) -- CPU_ReadMem(16 bytes @ 0xE000EFE0)ROMTbl 1 [0]: FFF0F000, CID: B105E00D, PID: 000BB008 SCS
 -- CPU_ReadMem(16 bytes @ 0xE0001FF0) -- CPU_ReadMem(16 bytes @ 0xE0001FE0)ROMTbl 1 [1]: FFF02000, CID: B105E00D, PID: 000BB00A DWT -- CPU_ReadMem(16 bytes @ 0xE0002FF0) -- CPU_ReadMem(16 bytes @ 0xE0002FE0)ROMTbl 1 [2]: FFF03000, CID: B105E00D, PID: 000BB00B FPB >0x0D TIF> >0x21 TIF>  returns 0x0BB11477 (0021ms, 0282ms total)
T2C08 000:309 JLINK_GetDLLVersion()  returns 61207 (0001ms, 0283ms total)
T2C08 000:310 JLINK_CORE_GetFound()  returns 0x60000FF (0000ms, 0283ms total)
T2C08 000:310 JLINK_GetDebugInfo(0x100) -- Value=0xF0000000  returns 0x00 (0000ms, 0283ms total)
T2C08 000:310 JLINK_GetDebugInfo(0x100) -- Value=0xF0000000  returns 0x00 (0000ms, 0283ms total)
T2C08 000:310 JLINK_GetDebugInfo(0x101) -- Value=0x00000000  returns 0x00 (0000ms, 0283ms total)
T2C08 000:310 JLINK_ReadMem (0xE0041FF0, 0x0010 Bytes, ...) -- CPU is running -- CPU_ReadMem(16 bytes @ 0xE0041FF0) - Data: 00 00 00 00 00 00 00 00 00 00 00 00 00 00 00 00  returns 0x00 (0000ms, 0283ms total)
T2C08 000:310 JLINK_GetDebugInfo(0x102) -- Value=0x00000000  returns 0x00 (0000ms, 0283ms total)
T2C08 000:310 JLINK_GetDebugInfo(0x103) -- Value=0x00000000  returns 0x00 (0000ms, 0283ms total)
T2C08 000:310 JLINK_ReadMem (0xE0040FF0, 0x0010 Bytes, ...) -- CPU is running -- CPU_ReadMem(16 bytes @ 0xE0040FF0) - Data: 00 00 00 00 00 00 00 00 00 00 00 00 00 00 00 00  returns 0x00 (0001ms, 0284ms total)
T2C08 000:311 JLINK_GetDebugInfo(0x104) -- Value=0xE0000000  returns 0x00 (0000ms, 0284ms total)
T2C08 000:311 JLINK_GetDebugInfo(0x105) -- Value=0xE0001000  returns 0x00 (0000ms, 0284ms total)
T2C08 000:311 JLINK_GetDebugInfo(0x106) -- Value=0xE0002000  returns 0x00 (0000ms, 0284ms total)
T2C08 000:311 JLINK_GetDebugInfo(0x107) -- Value=0xE000E000  returns 0x00 (0000ms, 0284ms total)
T2C08 000:311 JLINK_GetDebugInfo(0x10C) -- Value=0xE000EDF0  returns 0x00 (0000ms, 0284ms total)
T2C08 000:311 JLINK_ReadMemU32(0xE000ED00, 0x0001 Items, ...) -- CPU is running -- CPU_ReadMem(4 bytes @ 0xE000ED00) - Data: 00 C2 0C 41  returns 0x01 (0001ms, 0285ms total)
T2C08 000:312 JLINK_SetResetType(JLINKARM_CM3_RESET_TYPE_NORMAL)  returns JLINKARM_CM3_RESET_TYPE_NORMAL (0000ms, 0285ms total)
T2C08 000:312 JLINK_Reset()Performing XMC1000 reset -- CPU_ReadMem(4 bytes @ 0x10001004) -- CPU_WriteMem(4 bytes @ 0xE0002000) -- CPU_ReadMem(4 bytes @ 0xE0002008) -- CPU_WriteMem(4 bytes @ 0xE0002008) -- CPU_WriteMem(4 bytes @ 0xE000ED0C) -- CPU is running -- CPU_WriteMem(4 bytes @ 0xE0002008) -- CPU_WriteMem(4 bytes @ 0xE0002000) -- CPU_ReadMem(4 bytes @ 0xE000EDFC) -- CPU_ReadMem(4 bytes @ 0xE0001000) -- CPU_WriteMem(4 bytes @ 0xE0001000) (0032ms, 0317ms total)
T2C08 000:345 JLINK_ReadReg(R15 (PC))  returns 0x100010BC (0000ms, 0318ms total)
T2C08 000:345 JLINK_ReadReg(XPSR)  returns 0x61000000 (0000ms, 0318ms total)
T2C08 000:345 JLINK_Halt()  returns 0x00 (0000ms, 0318ms total)
T2C08 000:345 JLINK_IsHalted()  returns TRUE (0000ms, 0318ms total)
T2C08 000:345 JLINK_ReadMemU32(0xE000EDF0, 0x0001 Items, ...) -- CPU_ReadMem(4 bytes @ 0xE000EDF0) - Data: 03 00 03 00  returns 0x01 (0001ms, 0319ms total)
T2C08 000:346 JLINK_WriteU32(0xE000EDF0, 0xA05F0003) -- CPU_WriteMem(4 bytes @ 0xE000EDF0)  returns 0x00 (0000ms, 0319ms total)
T2C08 000:346 JLINK_WriteU32(0xE000EDFC, 0x01000000) -- CPU_WriteMem(4 bytes @ 0xE000EDFC)  returns 0x00 (0001ms, 0320ms total)
T2C08 000:347 JLINK_GetHWStatus(...)  returns 0x00 (0000ms, 0320ms total)
T2C08 000:348 JLINK_GetNumBPUnits(Type = 0xFFFFFF00)  returns 0x04 (0000ms, 0320ms total)
T2C08 000:348 JLINK_GetNumBPUnits(Type = 0xF0)  returns 0x2000 (0000ms, 0320ms total)
T2C08 000:348 JLINK_GetNumWPUnits()  returns 0x02 (0000ms, 0320ms total)
T2C08 000:348 JLINK_GetSpeed()  returns 0xBB8 (0000ms, 0320ms total)
T2C08 000:348 JLINK_ReadMemU32(0xE000E004, 0x0001 Items, ...) -- CPU_ReadMem(4 bytes @ 0xE000E004) - Data: 00 00 00 00  returns 0x01 (0000ms, 0320ms total)
T2C08 000:348 JLINK_ReadReg(R15 (PC))  returns 0x100010BC (0000ms, 0320ms total)
T2C08 000:348 JLINK_ReadReg(XPSR)  returns 0x61000000 (0000ms, 0320ms total)
T2C08 000:433 JLINK_SetResetType(JLINKARM_CM3_RESET_TYPE_NORMAL)  returns JLINKARM_CM3_RESET_TYPE_NORMAL (0001ms, 0321ms total)
T2C08 000:434 JLINK_Reset()Performing XMC1000 reset -- CPU_ReadMem(4 bytes @ 0x10001004) -- CPU_WriteMem(4 bytes @ 0xE0002000) -- CPU_ReadMem(4 bytes @ 0xE0002008) -- CPU_WriteMem(4 bytes @ 0xE0002008) -- CPU_WriteMem(4 bytes @ 0xE000ED0C) -- CPU is running -- CPU_WriteMem(4 bytes @ 0xE0002008) -- CPU_WriteMem(4 bytes @ 0xE0002000) -- CPU_ReadMem(4 bytes @ 0xE000EDFC) -- CPU_ReadMem(4 bytes @ 0xE0001000) -- CPU_WriteMem(4 bytes @ 0xE0001000) (0031ms, 0352ms total)
T2C08 000:465 JLINK_ReadReg(R15 (PC))  returns 0x100010BC (0000ms, 0352ms total)
T2C08 000:465 JLINK_ReadReg(XPSR)  returns 0x61000000 (0000ms, 0352ms total)
T2C08 000:467 JLINK_ReadMem (0x10000FBC, 0x003C Bytes, ...) -- CPU_ReadMem(60 bytes @ 0x10000FBC) - Data: 02 02 02 01 01 01 01 01 01 01 01 01 01 01 00 00 ...  returns 0x00 (0001ms, 0353ms total)
T2C08 000:468 JLINK_ReadMem (0x10000FF8, 0x0008 Bytes, ...) -- CPU_ReadMem(8 bytes @ 0x10000FF8) - Data: 01 04 00 20 00 00 00 00  returns 0x00 (0001ms, 0354ms total)
T2C08 000:469 JLINK_ReadMem (0x10001000, 0x0034 Bytes, ...) -- CPU_ReadMem(64 bytes @ 0x10001000) -- Updating C cache (64 bytes @ 0x10001000) -- Read from C cache (52 bytes @ 0x10001000) - Data: 38 08 00 20 BD 10 00 10 00 00 00 00 00 00 00 00 ...  returns 0x00 (0001ms, 0355ms total)
T2C08 000:470 JLINK_ReadMem (0x10001034, 0x003C Bytes, ...) -- CPU_ReadMem(64 bytes @ 0x10001040) -- Updating C cache (64 bytes @ 0x10001040) -- Read from C cache (60 bytes @ 0x10001034) - Data: AC 42 01 D1 00 F0 30 F8 7E 46 0F 3E 0F CC B6 46 ...  returns 0x00 (0001ms, 0356ms total)
T2C08 000:471 JLINK_ReadMem (0x10001070, 0x003C Bytes, ...) -- CPU_ReadMem(64 bytes @ 0x10001080) -- Updating C cache (64 bytes @ 0x10001080) -- Read from C cache (60 bytes @ 0x10001070) - Data: 04 68 0C 60 70 47 00 00 00 23 00 24 00 25 00 26 ...  returns 0x00 (0001ms, 0357ms total)
T2C08 000:472 JLINK_ReadMem (0x100010AC, 0x003C Bytes, ...) -- CPU_ReadMem(64 bytes @ 0x100010C0) -- Updating C cache (64 bytes @ 0x100010C0) -- Read from C cache (60 bytes @ 0x100010AC) - Data: F8 F8 03 B4 FF F7 F2 FF 03 BC 00 F0 FF F8 00 00 ...  returns 0x00 (0002ms, 0359ms total)
T2C08 000:550 JLINK_ReadMem (0x48040100, 0x0008 Bytes, ...) -- CPU_ReadMem(8 bytes @ 0x48040100) - Data: 00 00 00 00 00 00 00 00  returns 0x00 (0000ms, 0359ms total)
T2C08 000:551 JLINK_ReadMem (0x48040108, 0x0004 Bytes, ...) -- CPU_ReadMem(4 bytes @ 0x48040108) - Data: 00 00 00 00  returns 0x00 (0000ms, 0359ms total)
T2C08 000:551 JLINK_ReadMem (0x48040114, 0x0028 Bytes, ...) -- CPU_ReadMem(40 bytes @ 0x48040114) - Data: 00 00 00 00 00 00 00 00 00 00 00 00 00 00 00 00 ...  returns 0x00 (0002ms, 0361ms total)
T2C08 000:553 JLINK_ReadMem (0x4804013C, 0x0004 Bytes, ...) -- CPU_ReadMem(4 bytes @ 0x4804013C) - Data: 00 00 00 00  returns 0x00 (0000ms, 0361ms total)
T2C08 000:554 JLINK_ReadMem (0x48040170, 0x0004 Bytes, ...) -- CPU_ReadMem(4 bytes @ 0x48040170) - Data: 00 00 00 00  returns 0x00 (0000ms, 0362ms total)
T2C08 000:554 JLINK_ReadMem (0x480401A0, 0x0008 Bytes, ...) -- CPU_ReadMem(8 bytes @ 0x480401A0) - Data: 00 00 00 00 00 00 00 00  returns 0x00 (0001ms, 0363ms total)
T2C08 000:555 JLINK_ReadMem (0x480401A8, 0x0004 Bytes, ...) -- CPU_ReadMem(4 bytes @ 0x480401A8) - Data: 00 00 00 00  returns 0x00 (0001ms, 0364ms total)
T2C08 002:650 JLINK_ReadMem (0x48040100, 0x0008 Bytes, ...) -- CPU_ReadMem(8 bytes @ 0x48040100) - Data: 00 00 00 00 00 00 00 00  returns 0x00 (0000ms, 0364ms total)
T2C08 002:650 JLINK_ReadMem (0x48040108, 0x0004 Bytes, ...) -- CPU_ReadMem(4 bytes @ 0x48040108) - Data: 00 00 00 00  returns 0x00 (0001ms, 0365ms total)
T2C08 002:651 JLINK_ReadMem (0x48040114, 0x0028 Bytes, ...) -- CPU_ReadMem(40 bytes @ 0x48040114) - Data: 00 00 00 00 00 00 00 00 00 00 00 00 00 00 00 00 ...  returns 0x00 (0001ms, 0366ms total)
T2C08 002:652 JLINK_ReadMem (0x4804013C, 0x0004 Bytes, ...) -- CPU_ReadMem(4 bytes @ 0x4804013C) - Data: 00 00 00 00  returns 0x00 (0002ms, 0368ms total)
T2C08 002:654 JLINK_ReadMem (0x48040170, 0x0004 Bytes, ...) -- CPU_ReadMem(4 bytes @ 0x48040170) - Data: 00 00 00 00  returns 0x00 (0001ms, 0369ms total)
T2C08 002:655 JLINK_ReadMem (0x480401A0, 0x0008 Bytes, ...) -- CPU_ReadMem(8 bytes @ 0x480401A0) - Data: 00 00 00 00 00 00 00 00  returns 0x00 (0001ms, 0370ms total)
T2C08 002:656 JLINK_ReadMem (0x480401A8, 0x0004 Bytes, ...) -- CPU_ReadMem(4 bytes @ 0x480401A8) - Data: 00 00 00 00  returns 0x00 (0001ms, 0371ms total)
T32E8 009:008 JLINK_Go() -- CPU_ReadMem(4 bytes @ 0xE0001000) -- CPU_WriteMem(4 bytes @ 0xE0001000) -- CPU_WriteMem(4 bytes @ 0xE0001004) (0004ms, 0375ms total)
T32E8 009:112 JLINK_IsHalted()  returns FALSE (0000ms, 0375ms total)
T32E8 009:213 JLINK_IsHalted()  returns FALSE (0000ms, 0375ms total)
T32E8 009:315 JLINK_IsHalted()  returns FALSE (0000ms, 0375ms total)
T32E8 009:416 JLINK_IsHalted()  returns FALSE (0000ms, 0375ms total)
T32E8 009:517 JLINK_IsHalted()  returns FALSE (0000ms, 0375ms total)
T2C08 009:618 JLINK_ReadMem (0x48040100, 0x0008 Bytes, ...) -- CPU is running -- CPU_ReadMem(8 bytes @ 0x48040100) - Data: 00 00 00 00 00 00 00 00  returns 0x00 (0001ms, 0376ms total)
T2C08 009:619 JLINK_ReadMem (0x48040108, 0x0004 Bytes, ...) -- CPU is running -- CPU_ReadMem(4 bytes @ 0x48040108) - Data: 01 00 00 00  returns 0x00 (0000ms, 0376ms total)
T2C08 009:619 JLINK_ReadMem (0x48040114, 0x0028 Bytes, ...) -- CPU is running -- CPU_ReadMem(40 bytes @ 0x48040114) - Data: 00 00 00 00 00 00 00 00 00 00 00 00 00 00 00 00 ...  returns 0x00 (0002ms, 0378ms total)
T2C08 009:621 JLINK_ReadMem (0x4804013C, 0x0004 Bytes, ...) -- CPU is running -- CPU_ReadMem(4 bytes @ 0x4804013C) - Data: 00 FA 00 00  returns 0x00 (0001ms, 0379ms total)
T2C08 009:622 JLINK_ReadMem (0x48040170, 0x0004 Bytes, ...) -- CPU is running -- CPU_ReadMem(4 bytes @ 0x48040170) - Data: B3 7E 00 00  returns 0x00 (0001ms, 0380ms total)
T2C08 009:623 JLINK_ReadMem (0x480401A0, 0x0008 Bytes, ...) -- CPU is running -- CPU_ReadMem(8 bytes @ 0x480401A0) - Data: 05 00 00 00 00 00 00 00  returns 0x00 (0001ms, 0381ms total)
T2C08 009:624 JLINK_ReadMem (0x480401A8, 0x0004 Bytes, ...) -- CPU is running -- CPU_ReadMem(4 bytes @ 0x480401A8) - Data: 00 00 00 00  returns 0x00 (0001ms, 0382ms total)
T32E8 009:691 JLINK_IsHalted()  returns FALSE (0001ms, 0383ms total)
T32E8 009:792 JLINK_IsHalted()  returns FALSE (0000ms, 0382ms total)
T32E8 009:893 JLINK_IsHalted()  returns FALSE (0000ms, 0382ms total)
T32E8 009:995 JLINK_IsHalted()  returns FALSE (0000ms, 0382ms total)
T32E8 010:096 JLINK_IsHalted()  returns FALSE (0000ms, 0382ms total)
T2C08 010:197 JLINK_ReadMem (0x48040100, 0x0008 Bytes, ...) -- CPU is running -- CPU_ReadMem(8 bytes @ 0x48040100) - Data: 00 00 00 00 00 00 00 00  returns 0x00 (0000ms, 0382ms total)
T2C08 010:197 JLINK_ReadMem (0x48040108, 0x0004 Bytes, ...) -- CPU is running -- CPU_ReadMem(4 bytes @ 0x48040108) - Data: 01 00 00 00  returns 0x00 (0001ms, 0383ms total)
T2C08 010:198 JLINK_ReadMem (0x48040114, 0x0028 Bytes, ...) -- CPU is running -- CPU_ReadMem(40 bytes @ 0x48040114) - Data: 00 00 00 00 00 00 00 00 00 00 00 00 00 00 00 00 ...  returns 0x00 (0002ms, 0385ms total)
T2C08 010:200 JLINK_ReadMem (0x4804013C, 0x0004 Bytes, ...) -- CPU is running -- CPU_ReadMem(4 bytes @ 0x4804013C) - Data: 00 FA 00 00  returns 0x00 (0001ms, 0386ms total)
T2C08 010:201 JLINK_ReadMem (0x48040170, 0x0004 Bytes, ...) -- CPU is running -- CPU_ReadMem(4 bytes @ 0x48040170) - Data: 1F D8 00 00  returns 0x00 (0000ms, 0386ms total)
T2C08 010:201 JLINK_ReadMem (0x480401A0, 0x0008 Bytes, ...) -- CPU is running -- CPU_ReadMem(8 bytes @ 0x480401A0) - Data: 05 00 00 00 00 00 00 00  returns 0x00 (0001ms, 0387ms total)
T2C08 010:203 JLINK_ReadMem (0x480401A8, 0x0004 Bytes, ...) -- CPU is running -- CPU_ReadMem(4 bytes @ 0x480401A8) - Data: 00 00 00 00  returns 0x00 (0000ms, 0387ms total)
T32E8 010:211 JLINK_IsHalted()  returns FALSE (0000ms, 0387ms total)
T32E8 010:313 JLINK_IsHalted()  returns FALSE (0000ms, 0387ms total)
T32E8 010:414 JLINK_IsHalted()  returns FALSE (0000ms, 0387ms total)
T32E8 010:515 JLINK_IsHalted()  returns FALSE (0000ms, 0387ms total)
T32E8 010:616 JLINK_IsHalted()  returns FALSE (0000ms, 0387ms total)
T2C08 010:718 JLINK_ReadMem (0x48040100, 0x0008 Bytes, ...) -- CPU is running -- CPU_ReadMem(8 bytes @ 0x48040100) - Data: 00 00 00 00 00 00 00 00  returns 0x00 (0000ms, 0387ms total)
T2C08 010:718 JLINK_ReadMem (0x48040108, 0x0004 Bytes, ...) -- CPU is running -- CPU_ReadMem(4 bytes @ 0x48040108) - Data: 01 00 00 00  returns 0x00 (0001ms, 0388ms total)
T2C08 010:719 JLINK_ReadMem (0x48040114, 0x0028 Bytes, ...) -- CPU is running -- CPU_ReadMem(40 bytes @ 0x48040114) - Data: 00 00 00 00 00 00 00 00 00 00 00 00 00 00 00 00 ...  returns 0x00 (0002ms, 0390ms total)
T2C08 010:721 JLINK_ReadMem (0x4804013C, 0x0004 Bytes, ...) -- CPU is running -- CPU_ReadMem(4 bytes @ 0x4804013C) - Data: 00 FA 00 00  returns 0x00 (0001ms, 0391ms total)
T2C08 010:722 JLINK_ReadMem (0x48040170, 0x0004 Bytes, ...) -- CPU is running -- CPU_ReadMem(4 bytes @ 0x48040170) - Data: 01 39 00 00  returns 0x00 (0000ms, 0391ms total)
T2C08 010:722 JLINK_ReadMem (0x480401A0, 0x0008 Bytes, ...) -- CPU is running -- CPU_ReadMem(8 bytes @ 0x480401A0) - Data: 05 00 00 00 00 00 00 00  returns 0x00 (0001ms, 0392ms total)
T2C08 010:724 JLINK_ReadMem (0x480401A8, 0x0004 Bytes, ...) -- CPU is running -- CPU_ReadMem(4 bytes @ 0x480401A8) - Data: 00 00 00 00  returns 0x00 (0000ms, 0393ms total)
T32E8 010:732 JLINK_IsHalted()  returns FALSE (0001ms, 0394ms total)
T32E8 010:834 JLINK_IsHalted()  returns FALSE (0000ms, 0393ms total)
T32E8 010:935 JLINK_IsHalted()  returns FALSE (0000ms, 0393ms total)
T32E8 011:036 JLINK_IsHalted()  returns FALSE (0000ms, 0393ms total)
T32E8 011:137 JLINK_IsHalted()  returns FALSE (0000ms, 0393ms total)
T2C08 011:238 JLINK_ReadMem (0x48040100, 0x0008 Bytes, ...) -- CPU is running -- CPU_ReadMem(8 bytes @ 0x48040100) - Data: 00 00 00 00 00 00 00 00  returns 0x00 (0000ms, 0393ms total)
T2C08 011:238 JLINK_ReadMem (0x48040108, 0x0004 Bytes, ...) -- CPU is running -- CPU_ReadMem(4 bytes @ 0x48040108) - Data: 01 00 00 00  returns 0x00 (0001ms, 0394ms total)
T2C08 011:239 JLINK_ReadMem (0x48040114, 0x0028 Bytes, ...) -- CPU is running -- CPU_ReadMem(40 bytes @ 0x48040114) - Data: 00 00 00 00 00 00 00 00 00 00 00 00 00 00 00 00 ...  returns 0x00 (0003ms, 0397ms total)
T2C08 011:242 JLINK_ReadMem (0x4804013C, 0x0004 Bytes, ...) -- CPU is running -- CPU_ReadMem(4 bytes @ 0x4804013C) - Data: 00 FA 00 00  returns 0x00 (0001ms, 0398ms total)
T2C08 011:243 JLINK_ReadMem (0x48040170, 0x0004 Bytes, ...) -- CPU is running -- CPU_ReadMem(4 bytes @ 0x48040170) - Data: C5 5C 00 00  returns 0x00 (0001ms, 0399ms total)
T2C08 011:244 JLINK_ReadMem (0x480401A0, 0x0008 Bytes, ...) -- CPU is running -- CPU_ReadMem(8 bytes @ 0x480401A0) - Data: 05 00 00 00 00 00 00 00  returns 0x00 (0000ms, 0399ms total)
T2C08 011:244 JLINK_ReadMem (0x480401A8, 0x0004 Bytes, ...) -- CPU is running -- CPU_ReadMem(4 bytes @ 0x480401A8) - Data: 00 00 00 00  returns 0x00 (0001ms, 0400ms total)
T32E8 011:253 JLINK_IsHalted()  returns FALSE (0001ms, 0401ms total)
T32E8 011:355 JLINK_IsHalted()  returns FALSE (0000ms, 0400ms total)
T32E8 011:455 JLINK_IsHalted()  returns FALSE (0001ms, 0401ms total)
T32E8 011:556 JLINK_IsHalted()  returns FALSE (0001ms, 0401ms total)
T32E8 011:657 JLINK_IsHalted()  returns FALSE (0001ms, 0401ms total)
T2C08 011:759 JLINK_ReadMem (0x48040100, 0x0008 Bytes, ...) -- CPU is running -- CPU_ReadMem(8 bytes @ 0x48040100) - Data: 00 00 00 00 00 00 00 00  returns 0x00 (0001ms, 0401ms total)
T2C08 011:760 JLINK_ReadMem (0x48040108, 0x0004 Bytes, ...) -- CPU is running -- CPU_ReadMem(4 bytes @ 0x48040108) - Data: 01 00 00 00  returns 0x00 (0001ms, 0402ms total)
T2C08 011:761 JLINK_ReadMem (0x48040114, 0x0028 Bytes, ...) -- CPU is running -- CPU_ReadMem(40 bytes @ 0x48040114) - Data: 00 00 00 00 00 00 00 00 00 00 00 00 00 00 00 00 ...  returns 0x00 (0001ms, 0403ms total)
T2C08 011:762 JLINK_ReadMem (0x4804013C, 0x0004 Bytes, ...) -- CPU is running -- CPU_ReadMem(4 bytes @ 0x4804013C) - Data: 00 FA 00 00  returns 0x00 (0001ms, 0404ms total)
T2C08 011:763 JLINK_ReadMem (0x48040170, 0x0004 Bytes, ...) -- CPU is running -- CPU_ReadMem(4 bytes @ 0x48040170) - Data: 3B B8 00 00  returns 0x00 (0001ms, 0405ms total)
T2C08 011:764 JLINK_ReadMem (0x480401A0, 0x0008 Bytes, ...) -- CPU is running -- CPU_ReadMem(8 bytes @ 0x480401A0) - Data: 05 00 00 00 00 00 00 00  returns 0x00 (0001ms, 0406ms total)
T2C08 011:765 JLINK_ReadMem (0x480401A8, 0x0004 Bytes, ...) -- CPU is running -- CPU_ReadMem(4 bytes @ 0x480401A8) - Data: 00 00 00 00  returns 0x00 (0001ms, 0407ms total)
T32E8 011:774 JLINK_IsHalted()  returns FALSE (0000ms, 0407ms total)
T32E8 011:875 JLINK_IsHalted()  returns FALSE (0000ms, 0407ms total)
T32E8 011:976 JLINK_IsHalted()  returns FALSE (0000ms, 0407ms total)
T32E8 012:077 JLINK_IsHalted()  returns FALSE (0000ms, 0407ms total)
T32E8 012:178 JLINK_IsHalted()  returns FALSE (0000ms, 0407ms total)
T2C08 012:279 JLINK_ReadMem (0x48040100, 0x0008 Bytes, ...) -- CPU is running -- CPU_ReadMem(8 bytes @ 0x48040100) - Data: 00 00 00 00 00 00 00 00  returns 0x00 (0000ms, 0407ms total)
T2C08 012:279 JLINK_ReadMem (0x48040108, 0x0004 Bytes, ...) -- CPU is running -- CPU_ReadMem(4 bytes @ 0x48040108) - Data: 01 00 00 00  returns 0x00 (0001ms, 0408ms total)
T2C08 012:280 JLINK_ReadMem (0x48040114, 0x0028 Bytes, ...) -- CPU is running -- CPU_ReadMem(40 bytes @ 0x48040114) - Data: 00 00 00 00 00 00 00 00 00 00 00 00 00 00 00 00 ...  returns 0x00 (0002ms, 0410ms total)
T2C08 012:282 JLINK_ReadMem (0x4804013C, 0x0004 Bytes, ...) -- CPU is running -- CPU_ReadMem(4 bytes @ 0x4804013C) - Data: 00 FA 00 00  returns 0x00 (0001ms, 0411ms total)
T2C08 012:283 JLINK_ReadMem (0x48040170, 0x0004 Bytes, ...) -- CPU is running -- CPU_ReadMem(4 bytes @ 0x48040170) - Data: E7 55 00 00  returns 0x00 (0001ms, 0412ms total)
T2C08 012:284 JLINK_ReadMem (0x480401A0, 0x0008 Bytes, ...) -- CPU is running -- CPU_ReadMem(8 bytes @ 0x480401A0) - Data: 05 00 00 00 00 00 00 00  returns 0x00 (0000ms, 0412ms total)
T2C08 012:285 JLINK_ReadMem (0x480401A8, 0x0004 Bytes, ...) -- CPU is running -- CPU_ReadMem(4 bytes @ 0x480401A8) - Data: 00 00 00 00  returns 0x00 (0001ms, 0414ms total)
T32E8 012:295 JLINK_IsHalted()  returns FALSE (0001ms, 0415ms total)
T32E8 012:398 JLINK_IsHalted()  returns FALSE (0000ms, 0414ms total)
T32E8 012:499 JLINK_IsHalted()  returns FALSE (0000ms, 0414ms total)
T32E8 012:600 JLINK_IsHalted()  returns FALSE (0000ms, 0414ms total)
T32E8 012:701 JLINK_IsHalted()  returns FALSE (0001ms, 0415ms total)
T2C08 012:802 JLINK_ReadMem (0x48040100, 0x0008 Bytes, ...) -- CPU is running -- CPU_ReadMem(8 bytes @ 0x48040100) - Data: 00 00 00 00 00 00 00 00  returns 0x00 (0000ms, 0414ms total)
T2C08 012:802 JLINK_ReadMem (0x48040108, 0x0004 Bytes, ...) -- CPU is running -- CPU_ReadMem(4 bytes @ 0x48040108) - Data: 01 00 00 00  returns 0x00 (0001ms, 0415ms total)
T2C08 012:803 JLINK_ReadMem (0x48040114, 0x0028 Bytes, ...) -- CPU is running -- CPU_ReadMem(40 bytes @ 0x48040114) - Data: 00 00 00 00 00 00 00 00 00 00 00 00 00 00 00 00 ...  returns 0x00 (0001ms, 0416ms total)
T2C08 012:804 JLINK_ReadMem (0x4804013C, 0x0004 Bytes, ...) -- CPU is running -- CPU_ReadMem(4 bytes @ 0x4804013C) - Data: 00 FA 00 00  returns 0x00 (0000ms, 0416ms total)
T2C08 012:804 JLINK_ReadMem (0x48040170, 0x0004 Bytes, ...) -- CPU is running -- CPU_ReadMem(4 bytes @ 0x48040170) - Data: 45 5F 00 00  returns 0x00 (0001ms, 0417ms total)
T2C08 012:805 JLINK_ReadMem (0x480401A0, 0x0008 Bytes, ...) -- CPU is running -- CPU_ReadMem(8 bytes @ 0x480401A0) - Data: 05 00 00 00 00 00 00 00  returns 0x00 (0000ms, 0417ms total)
T2C08 012:805 JLINK_ReadMem (0x480401A8, 0x0004 Bytes, ...) -- CPU is running -- CPU_ReadMem(4 bytes @ 0x480401A8) - Data: 00 00 00 00  returns 0x00 (0000ms, 0417ms total)
T32E8 012:814 JLINK_IsHalted()  returns FALSE (0000ms, 0417ms total)
T32E8 012:916 JLINK_IsHalted()  returns FALSE (0000ms, 0417ms total)
T32E8 013:017 JLINK_IsHalted()  returns FALSE (0000ms, 0417ms total)
T32E8 013:119 JLINK_IsHalted()  returns FALSE (0000ms, 0417ms total)
T32E8 013:221 JLINK_IsHalted()  returns FALSE (0000ms, 0417ms total)
T2C08 013:322 JLINK_ReadMem (0x48040100, 0x0008 Bytes, ...) -- CPU is running -- CPU_ReadMem(8 bytes @ 0x48040100) - Data: 00 00 00 00 00 00 00 00  returns 0x00 (0001ms, 0418ms total)
T2C08 013:323 JLINK_ReadMem (0x48040108, 0x0004 Bytes, ...) -- CPU is running -- CPU_ReadMem(4 bytes @ 0x48040108) - Data: 01 00 00 00  returns 0x00 (0000ms, 0418ms total)
T2C08 013:323 JLINK_ReadMem (0x48040114, 0x0028 Bytes, ...) -- CPU is running -- CPU_ReadMem(40 bytes @ 0x48040114) - Data: 00 00 00 00 00 00 00 00 00 00 00 00 00 00 00 00 ...  returns 0x00 (0001ms, 0419ms total)
T2C08 013:324 JLINK_ReadMem (0x4804013C, 0x0004 Bytes, ...) -- CPU is running -- CPU_ReadMem(4 bytes @ 0x4804013C) - Data: 00 FA 00 00  returns 0x00 (0000ms, 0419ms total)
T2C08 013:324 JLINK_ReadMem (0x48040170, 0x0004 Bytes, ...) -- CPU is running -- CPU_ReadMem(4 bytes @ 0x48040170) - Data: 7F 7A 00 00  returns 0x00 (0001ms, 0420ms total)
T2C08 013:325 JLINK_ReadMem (0x480401A0, 0x0008 Bytes, ...) -- CPU is running -- CPU_ReadMem(8 bytes @ 0x480401A0) - Data: 05 00 00 00 00 00 00 00  returns 0x00 (0000ms, 0420ms total)
T2C08 013:325 JLINK_ReadMem (0x480401A8, 0x0004 Bytes, ...) -- CPU is running -- CPU_ReadMem(4 bytes @ 0x480401A8) - Data: 00 00 00 00  returns 0x00 (0001ms, 0421ms total)
T32E8 013:333 JLINK_IsHalted()  returns FALSE (0001ms, 0422ms total)
T32E8 013:435 JLINK_IsHalted()  returns FALSE (0000ms, 0421ms total)
T32E8 013:536 JLINK_IsHalted()  returns FALSE (0000ms, 0421ms total)
T32E8 013:637 JLINK_IsHalted()  returns FALSE (0000ms, 0421ms total)
T32E8 013:739 JLINK_IsHalted()  returns FALSE (0000ms, 0421ms total)
T2C08 013:840 JLINK_ReadMem (0x48040100, 0x0008 Bytes, ...) -- CPU is running -- CPU_ReadMem(8 bytes @ 0x48040100) - Data: 00 00 00 00 00 00 00 00  returns 0x00 (0000ms, 0421ms total)
T2C08 013:840 JLINK_ReadMem (0x48040108, 0x0004 Bytes, ...) -- CPU is running -- CPU_ReadMem(4 bytes @ 0x48040108) - Data: 01 00 00 00  returns 0x00 (0001ms, 0422ms total)
T2C08 013:841 JLINK_ReadMem (0x48040114, 0x0028 Bytes, ...) -- CPU is running -- CPU_ReadMem(40 bytes @ 0x48040114) - Data: 00 00 00 00 00 00 00 00 00 00 00 00 00 00 00 00 ...  returns 0x00 (0001ms, 0423ms total)
T2C08 013:842 JLINK_ReadMem (0x4804013C, 0x0004 Bytes, ...) -- CPU is running -- CPU_ReadMem(4 bytes @ 0x4804013C) - Data: 00 FA 00 00  returns 0x00 (0001ms, 0424ms total)
T2C08 013:843 JLINK_ReadMem (0x48040170, 0x0004 Bytes, ...) -- CPU is running -- CPU_ReadMem(4 bytes @ 0x48040170) - Data: AF 45 00 00  returns 0x00 (0001ms, 0425ms total)
T2C08 013:844 JLINK_ReadMem (0x480401A0, 0x0008 Bytes, ...) -- CPU is running -- CPU_ReadMem(8 bytes @ 0x480401A0) - Data: 05 00 00 00 00 00 00 00  returns 0x00 (0001ms, 0426ms total)
T2C08 013:845 JLINK_ReadMem (0x480401A8, 0x0004 Bytes, ...) -- CPU is running -- CPU_ReadMem(4 bytes @ 0x480401A8) - Data: 00 00 00 00  returns 0x00 (0001ms, 0427ms total)
T32E8 013:855 JLINK_IsHalted()  returns FALSE (0001ms, 0428ms total)
T32E8 013:957 JLINK_IsHalted()  returns FALSE (0000ms, 0427ms total)
T32E8 014:057 JLINK_IsHalted()  returns FALSE (0001ms, 0428ms total)
T32E8 014:158 JLINK_IsHalted()  returns FALSE (0000ms, 0427ms total)
T32E8 014:259 JLINK_IsHalted()  returns FALSE (0001ms, 0428ms total)
T2C08 014:360 JLINK_ReadMem (0x48040100, 0x0008 Bytes, ...) -- CPU is running -- CPU_ReadMem(8 bytes @ 0x48040100) - Data: 00 00 00 00 00 00 00 00  returns 0x00 (0000ms, 0427ms total)
T2C08 014:360 JLINK_ReadMem (0x48040108, 0x0004 Bytes, ...) -- CPU is running -- CPU_ReadMem(4 bytes @ 0x48040108) - Data: 01 00 00 00  returns 0x00 (0001ms, 0428ms total)
T2C08 014:361 JLINK_ReadMem (0x48040114, 0x0028 Bytes, ...) -- CPU is running -- CPU_ReadMem(40 bytes @ 0x48040114) - Data: 00 00 00 00 00 00 00 00 00 00 00 00 00 00 00 00 ...  returns 0x00 (0001ms, 0429ms total)
T2C08 014:362 JLINK_ReadMem (0x4804013C, 0x0004 Bytes, ...) -- CPU is running -- CPU_ReadMem(4 bytes @ 0x4804013C) - Data: 00 FA 00 00  returns 0x00 (0001ms, 0430ms total)
T2C08 014:363 JLINK_ReadMem (0x48040170, 0x0004 Bytes, ...) -- CPU is running -- CPU_ReadMem(4 bytes @ 0x48040170) - Data: 2B D3 00 00  returns 0x00 (0001ms, 0431ms total)
T2C08 014:364 JLINK_ReadMem (0x480401A0, 0x0008 Bytes, ...) -- CPU is running -- CPU_ReadMem(8 bytes @ 0x480401A0) - Data: 05 00 00 00 00 00 00 00  returns 0x00 (0001ms, 0432ms total)
T2C08 014:365 JLINK_ReadMem (0x480401A8, 0x0004 Bytes, ...) -- CPU is running -- CPU_ReadMem(4 bytes @ 0x480401A8) - Data: 00 00 00 00  returns 0x00 (0001ms, 0433ms total)
T32E8 014:374 JLINK_IsHalted()  returns FALSE (0000ms, 0433ms total)
T32E8 014:475 JLINK_IsHalted()  returns FALSE (0000ms, 0433ms total)
T32E8 014:576 JLINK_IsHalted()  returns FALSE (0000ms, 0433ms total)
T32E8 014:677 JLINK_IsHalted()  returns FALSE (0000ms, 0433ms total)
T32E8 014:779 JLINK_IsHalted()  returns FALSE (0000ms, 0433ms total)
T2C08 014:880 JLINK_ReadMem (0x48040100, 0x0008 Bytes, ...) -- CPU is running -- CPU_ReadMem(8 bytes @ 0x48040100) - Data: 00 00 00 00 00 00 00 00  returns 0x00 (0000ms, 0433ms total)
T2C08 014:880 JLINK_ReadMem (0x48040108, 0x0004 Bytes, ...) -- CPU is running -- CPU_ReadMem(4 bytes @ 0x48040108) - Data: 01 00 00 00  returns 0x00 (0001ms, 0434ms total)
T2C08 014:881 JLINK_ReadMem (0x48040114, 0x0028 Bytes, ...) -- CPU is running -- CPU_ReadMem(40 bytes @ 0x48040114) - Data: 00 00 00 00 00 00 00 00 00 00 00 00 00 00 00 00 ...  returns 0x00 (0002ms, 0436ms total)
T2C08 014:883 JLINK_ReadMem (0x4804013C, 0x0004 Bytes, ...) -- CPU is running -- CPU_ReadMem(4 bytes @ 0x4804013C) - Data: 00 FA 00 00  returns 0x00 (0000ms, 0436ms total)
T2C08 014:883 JLINK_ReadMem (0x48040170, 0x0004 Bytes, ...) -- CPU is running -- CPU_ReadMem(4 bytes @ 0x48040170) - Data: 91 2F 00 00  returns 0x00 (0001ms, 0437ms total)
T2C08 014:884 JLINK_ReadMem (0x480401A0, 0x0008 Bytes, ...) -- CPU is running -- CPU_ReadMem(8 bytes @ 0x480401A0) - Data: 05 00 00 00 00 00 00 00  returns 0x00 (0001ms, 0438ms total)
T2C08 014:885 JLINK_ReadMem (0x480401A8, 0x0004 Bytes, ...) -- CPU is running -- CPU_ReadMem(4 bytes @ 0x480401A8) - Data: 00 00 00 00  returns 0x00 (0001ms, 0439ms total)
T32E8 014:893 JLINK_IsHalted()  returns FALSE (0001ms, 0440ms total)
T32E8 014:995 JLINK_IsHalted()  returns FALSE (0000ms, 0439ms total)
T32E8 015:096 JLINK_IsHalted()  returns FALSE (0001ms, 0440ms total)
T32E8 015:197 JLINK_IsHalted()  returns FALSE (0000ms, 0439ms total)
T32E8 015:298 JLINK_IsHalted()  returns FALSE (0001ms, 0440ms total)
T2C08 015:400 JLINK_ReadMem (0x48040100, 0x0008 Bytes, ...) -- CPU is running -- CPU_ReadMem(8 bytes @ 0x48040100) - Data: 00 00 00 00 00 00 00 00  returns 0x00 (0000ms, 0439ms total)
T2C08 015:400 JLINK_ReadMem (0x48040108, 0x0004 Bytes, ...) -- CPU is running -- CPU_ReadMem(4 bytes @ 0x48040108) - Data: 01 00 00 00  returns 0x00 (0001ms, 0440ms total)
T2C08 015:401 JLINK_ReadMem (0x48040114, 0x0028 Bytes, ...) -- CPU is running -- CPU_ReadMem(40 bytes @ 0x48040114) - Data: 00 00 00 00 00 00 00 00 00 00 00 00 00 00 00 00 ...  returns 0x00 (0001ms, 0441ms total)
T2C08 015:403 JLINK_ReadMem (0x4804013C, 0x0004 Bytes, ...) -- CPU is running -- CPU_ReadMem(4 bytes @ 0x4804013C) - Data: 00 FA 00 00  returns 0x00 (0001ms, 0442ms total)
T2C08 015:404 JLINK_ReadMem (0x48040170, 0x0004 Bytes, ...) -- CPU is running -- CPU_ReadMem(4 bytes @ 0x48040170) - Data: 01 4F 00 00  returns 0x00 (0000ms, 0442ms total)
T2C08 015:404 JLINK_ReadMem (0x480401A0, 0x0008 Bytes, ...) -- CPU is running -- CPU_ReadMem(8 bytes @ 0x480401A0) - Data: 05 00 00 00 00 00 00 00  returns 0x00 (0002ms, 0444ms total)
T2C08 015:406 JLINK_ReadMem (0x480401A8, 0x0004 Bytes, ...) -- CPU is running -- CPU_ReadMem(4 bytes @ 0x480401A8) - Data: 00 00 00 00  returns 0x00 (0000ms, 0444ms total)
T32E8 015:416 JLINK_IsHalted()  returns FALSE (0001ms, 0446ms total)
T32E8 015:518 JLINK_IsHalted()  returns FALSE (0000ms, 0445ms total)
T32E8 015:619 JLINK_IsHalted()  returns FALSE (0000ms, 0445ms total)
T32E8 015:720 JLINK_IsHalted()  returns FALSE (0000ms, 0445ms total)
T32E8 015:822 JLINK_IsHalted()  returns FALSE (0000ms, 0445ms total)
T2C08 015:923 JLINK_ReadMem (0x48040100, 0x0008 Bytes, ...) -- CPU is running -- CPU_ReadMem(8 bytes @ 0x48040100) - Data: 00 00 00 00 00 00 00 00  returns 0x00 (0000ms, 0445ms total)
T2C08 015:923 JLINK_ReadMem (0x48040108, 0x0004 Bytes, ...) -- CPU is running -- CPU_ReadMem(4 bytes @ 0x48040108) - Data: 01 00 00 00  returns 0x00 (0001ms, 0446ms total)
T2C08 015:924 JLINK_ReadMem (0x48040114, 0x0028 Bytes, ...) -- CPU is running -- CPU_ReadMem(40 bytes @ 0x48040114) - Data: 00 00 00 00 00 00 00 00 00 00 00 00 00 00 00 00 ...  returns 0x00 (0001ms, 0447ms total)
T2C08 015:925 JLINK_ReadMem (0x4804013C, 0x0004 Bytes, ...) -- CPU is running -- CPU_ReadMem(4 bytes @ 0x4804013C) - Data: 00 FA 00 00  returns 0x00 (0000ms, 0447ms total)
T2C08 015:925 JLINK_ReadMem (0x48040170, 0x0004 Bytes, ...) -- CPU is running -- CPU_ReadMem(4 bytes @ 0x48040170) - Data: BB B5 00 00  returns 0x00 (0001ms, 0448ms total)
T2C08 015:926 JLINK_ReadMem (0x480401A0, 0x0008 Bytes, ...) -- CPU is running -- CPU_ReadMem(8 bytes @ 0x480401A0) - Data: 05 00 00 00 00 00 00 00  returns 0x00 (0000ms, 0448ms total)
T2C08 015:926 JLINK_ReadMem (0x480401A8, 0x0004 Bytes, ...) -- CPU is running -- CPU_ReadMem(4 bytes @ 0x480401A8) - Data: 00 00 00 00  returns 0x00 (0001ms, 0449ms total)
T32E8 015:935 JLINK_IsHalted()  returns FALSE (0000ms, 0449ms total)
T32E8 016:036 JLINK_IsHalted()  returns FALSE (0000ms, 0449ms total)
T32E8 016:137 JLINK_IsHalted()  returns FALSE (0000ms, 0449ms total)
T32E8 016:238 JLINK_IsHalted()  returns FALSE (0000ms, 0449ms total)
T32E8 016:339 JLINK_IsHalted()  returns FALSE (0000ms, 0449ms total)
T2C08 016:441 JLINK_ReadMem (0x48040100, 0x0008 Bytes, ...) -- CPU is running -- CPU_ReadMem(8 bytes @ 0x48040100) - Data: 00 00 00 00 00 00 00 00  returns 0x00 (0001ms, 0450ms total)
T2C08 016:442 JLINK_ReadMem (0x48040108, 0x0004 Bytes, ...) -- CPU is running -- CPU_ReadMem(4 bytes @ 0x48040108) - Data: 01 00 00 00  returns 0x00 (0000ms, 0450ms total)
T2C08 016:442 JLINK_ReadMem (0x48040114, 0x0028 Bytes, ...) -- CPU is running -- CPU_ReadMem(40 bytes @ 0x48040114) - Data: 00 00 00 00 00 00 00 00 00 00 00 00 00 00 00 00 ...  returns 0x00 (0002ms, 0452ms total)
T2C08 016:444 JLINK_ReadMem (0x4804013C, 0x0004 Bytes, ...) -- CPU is running -- CPU_ReadMem(4 bytes @ 0x4804013C) - Data: 00 FA 00 00  returns 0x00 (0000ms, 0452ms total)
T2C08 016:444 JLINK_ReadMem (0x48040170, 0x0004 Bytes, ...) -- CPU is running -- CPU_ReadMem(4 bytes @ 0x48040170) - Data: DD 7F 00 00  returns 0x00 (0001ms, 0453ms total)
T2C08 016:445 JLINK_ReadMem (0x480401A0, 0x0008 Bytes, ...) -- CPU is running -- CPU_ReadMem(8 bytes @ 0x480401A0) - Data: 05 00 00 00 00 00 00 00  returns 0x00 (0000ms, 0453ms total)
T2C08 016:445 JLINK_ReadMem (0x480401A8, 0x0004 Bytes, ...) -- CPU is running -- CPU_ReadMem(4 bytes @ 0x480401A8) - Data: 00 00 00 00  returns 0x00 (0000ms, 0453ms total)
T32E8 016:452 JLINK_IsHalted()  returns FALSE (0001ms, 0455ms total)
T32E8 016:553 JLINK_IsHalted()  returns FALSE (0000ms, 0454ms total)
T32E8 016:654 JLINK_IsHalted()  returns FALSE (0001ms, 0455ms total)
T32E8 016:755 JLINK_IsHalted()  returns FALSE (0000ms, 0454ms total)
T32E8 016:856 JLINK_IsHalted()  returns FALSE (0001ms, 0455ms total)
T2C08 016:960 JLINK_ReadMem (0x48040100, 0x0008 Bytes, ...) -- CPU is running -- CPU_ReadMem(8 bytes @ 0x48040100) - Data: 00 00 00 00 00 00 00 00  returns 0x00 (0001ms, 0455ms total)
T2C08 016:961 JLINK_ReadMem (0x48040108, 0x0004 Bytes, ...) -- CPU is running -- CPU_ReadMem(4 bytes @ 0x48040108) - Data: 01 00 00 00  returns 0x00 (0001ms, 0456ms total)
T2C08 016:962 JLINK_ReadMem (0x48040114, 0x0028 Bytes, ...) -- CPU is running -- CPU_ReadMem(40 bytes @ 0x48040114) - Data: 00 00 00 00 00 00 00 00 00 00 00 00 00 00 00 00 ...  returns 0x00 (0001ms, 0457ms total)
T2C08 016:963 JLINK_ReadMem (0x4804013C, 0x0004 Bytes, ...) -- CPU is running -- CPU_ReadMem(4 bytes @ 0x4804013C) - Data: 00 FA 00 00  returns 0x00 (0001ms, 0458ms total)
T2C08 016:964 JLINK_ReadMem (0x48040170, 0x0004 Bytes, ...) -- CPU is running -- CPU_ReadMem(4 bytes @ 0x48040170) - Data: C1 83 00 00  returns 0x00 (0001ms, 0459ms total)
T2C08 016:965 JLINK_ReadMem (0x480401A0, 0x0008 Bytes, ...) -- CPU is running -- CPU_ReadMem(8 bytes @ 0x480401A0) - Data: 05 00 00 00 00 00 00 00  returns 0x00 (0001ms, 0460ms total)
T2C08 016:966 JLINK_ReadMem (0x480401A8, 0x0004 Bytes, ...) -- CPU is running -- CPU_ReadMem(4 bytes @ 0x480401A8) - Data: 00 00 00 00  returns 0x00 (0001ms, 0461ms total)
T32E8 016:974 JLINK_IsHalted()  returns FALSE (0001ms, 0462ms total)
T32E8 017:076 JLINK_IsHalted()  returns FALSE (0000ms, 0461ms total)
T32E8 017:177 JLINK_IsHalted()  returns FALSE (0000ms, 0461ms total)
T32E8 017:278 JLINK_IsHalted()  returns FALSE (0000ms, 0461ms total)
T32E8 017:380 JLINK_IsHalted()  returns FALSE (0000ms, 0461ms total)
T2C08 017:481 JLINK_ReadMem (0x48040100, 0x0008 Bytes, ...) -- CPU is running -- CPU_ReadMem(8 bytes @ 0x48040100) - Data: 00 00 00 00 00 00 00 00  returns 0x00 (0001ms, 0462ms total)
T2C08 017:482 JLINK_ReadMem (0x48040108, 0x0004 Bytes, ...) -- CPU is running -- CPU_ReadMem(4 bytes @ 0x48040108) - Data: 01 00 00 00  returns 0x00 (0001ms, 0463ms total)
T2C08 017:483 JLINK_ReadMem (0x48040114, 0x0028 Bytes, ...) -- CPU is running -- CPU_ReadMem(40 bytes @ 0x48040114) - Data: 00 00 00 00 00 00 00 00 00 00 00 00 00 00 00 00 ...  returns 0x00 (0001ms, 0464ms total)
T2C08 017:484 JLINK_ReadMem (0x4804013C, 0x0004 Bytes, ...) -- CPU is running -- CPU_ReadMem(4 bytes @ 0x4804013C) - Data: 00 FA 00 00  returns 0x00 (0001ms, 0465ms total)
T2C08 017:485 JLINK_ReadMem (0x48040170, 0x0004 Bytes, ...) -- CPU is running -- CPU_ReadMem(4 bytes @ 0x48040170) - Data: EB 18 00 00  returns 0x00 (0001ms, 0466ms total)
T2C08 017:486 JLINK_ReadMem (0x480401A0, 0x0008 Bytes, ...) -- CPU is running -- CPU_ReadMem(8 bytes @ 0x480401A0) - Data: 05 00 00 00 00 00 00 00  returns 0x00 (0001ms, 0467ms total)
T2C08 017:487 JLINK_ReadMem (0x480401A8, 0x0004 Bytes, ...) -- CPU is running -- CPU_ReadMem(4 bytes @ 0x480401A8) - Data: 00 00 00 00  returns 0x00 (0001ms, 0468ms total)
T32E8 017:498 JLINK_IsHalted()  returns FALSE (0001ms, 0469ms total)
T32E8 017:599 JLINK_IsHalted()  returns FALSE (0000ms, 0468ms total)
T32E8 017:700 JLINK_IsHalted()  returns FALSE (0000ms, 0468ms total)
T32E8 017:801 JLINK_IsHalted()  returns FALSE (0000ms, 0468ms total)
T32E8 017:903 JLINK_IsHalted()  returns FALSE (0000ms, 0468ms total)
T2C08 018:004 JLINK_ReadMem (0x48040100, 0x0008 Bytes, ...) -- CPU is running -- CPU_ReadMem(8 bytes @ 0x48040100) - Data: 00 00 00 00 00 00 00 00  returns 0x00 (0000ms, 0468ms total)
T2C08 018:004 JLINK_ReadMem (0x48040108, 0x0004 Bytes, ...) -- CPU is running -- CPU_ReadMem(4 bytes @ 0x48040108) - Data: 01 00 00 00  returns 0x00 (0001ms, 0469ms total)
T2C08 018:005 JLINK_ReadMem (0x48040114, 0x0028 Bytes, ...) -- CPU is running -- CPU_ReadMem(40 bytes @ 0x48040114) - Data: 00 00 00 00 00 00 00 00 00 00 00 00 00 00 00 00 ...  returns 0x00 (0001ms, 0470ms total)
T2C08 018:006 JLINK_ReadMem (0x4804013C, 0x0004 Bytes, ...) -- CPU is running -- CPU_ReadMem(4 bytes @ 0x4804013C) - Data: 00 FA 00 00  returns 0x00 (0002ms, 0472ms total)
T2C08 018:008 JLINK_ReadMem (0x48040170, 0x0004 Bytes, ...) -- CPU is running -- CPU_ReadMem(4 bytes @ 0x48040170) - Data: 57 AF 00 00  returns 0x00 (0001ms, 0473ms total)
T2C08 018:009 JLINK_ReadMem (0x480401A0, 0x0008 Bytes, ...) -- CPU is running -- CPU_ReadMem(8 bytes @ 0x480401A0) - Data: 05 00 00 00 00 00 00 00  returns 0x00 (0001ms, 0474ms total)
T2C08 018:010 JLINK_ReadMem (0x480401A8, 0x0004 Bytes, ...) -- CPU is running -- CPU_ReadMem(4 bytes @ 0x480401A8) - Data: 00 00 00 00  returns 0x00 (0001ms, 0475ms total)
T32E8 018:018 JLINK_IsHalted()  returns FALSE (0001ms, 0476ms total)
T32E8 018:120 JLINK_IsHalted()  returns FALSE (0000ms, 0475ms total)
T32E8 018:221 JLINK_IsHalted()  returns FALSE (0000ms, 0475ms total)
T32E8 018:322 JLINK_IsHalted()  returns FALSE (0000ms, 0475ms total)
T32E8 018:423 JLINK_IsHalted()  returns FALSE (0000ms, 0475ms total)
T2C08 018:525 JLINK_ReadMem (0x48040100, 0x0008 Bytes, ...) -- CPU is running -- CPU_ReadMem(8 bytes @ 0x48040100) - Data: 00 00 00 00 00 00 00 00  returns 0x00 (0001ms, 0476ms total)
T2C08 018:526 JLINK_ReadMem (0x48040108, 0x0004 Bytes, ...) -- CPU is running -- CPU_ReadMem(4 bytes @ 0x48040108) - Data: 01 00 00 00  returns 0x00 (0001ms, 0477ms total)
T2C08 018:527 JLINK_ReadMem (0x48040114, 0x0028 Bytes, ...) -- CPU is running -- CPU_ReadMem(40 bytes @ 0x48040114) - Data: 00 00 00 00 00 00 00 00 00 00 00 00 00 00 00 00 ...  returns 0x00 (0001ms, 0478ms total)
T2C08 018:528 JLINK_ReadMem (0x4804013C, 0x0004 Bytes, ...) -- CPU is running -- CPU_ReadMem(4 bytes @ 0x4804013C) - Data: 00 FA 00 00  returns 0x00 (0001ms, 0479ms total)
T2C08 018:529 JLINK_ReadMem (0x48040170, 0x0004 Bytes, ...) -- CPU is running -- CPU_ReadMem(4 bytes @ 0x48040170) - Data: EF 97 00 00  returns 0x00 (0001ms, 0480ms total)
T2C08 018:530 JLINK_ReadMem (0x480401A0, 0x0008 Bytes, ...) -- CPU is running -- CPU_ReadMem(8 bytes @ 0x480401A0) - Data: 05 00 00 00 00 00 00 00  returns 0x00 (0001ms, 0481ms total)
T2C08 018:531 JLINK_ReadMem (0x480401A8, 0x0004 Bytes, ...) -- CPU is running -- CPU_ReadMem(4 bytes @ 0x480401A8) - Data: 00 00 00 00  returns 0x00 (0000ms, 0481ms total)
T32E8 018:541 JLINK_IsHalted()  returns FALSE (0001ms, 0482ms total)
T32E8 018:643 JLINK_IsHalted()  returns FALSE (0000ms, 0481ms total)
T32E8 018:744 JLINK_IsHalted()  returns FALSE (0000ms, 0481ms total)
T32E8 018:845 JLINK_IsHalted()  returns FALSE (0000ms, 0481ms total)
T32E8 018:946 JLINK_IsHalted()  returns FALSE (0000ms, 0481ms total)
T2C08 019:047 JLINK_ReadMem (0x48040100, 0x0008 Bytes, ...) -- CPU is running -- CPU_ReadMem(8 bytes @ 0x48040100) - Data: 00 00 00 00 00 00 00 00  returns 0x00 (0000ms, 0481ms total)
T2C08 019:047 JLINK_ReadMem (0x48040108, 0x0004 Bytes, ...) -- CPU is running -- CPU_ReadMem(4 bytes @ 0x48040108) - Data: 01 00 00 00  returns 0x00 (0001ms, 0482ms total)
T2C08 019:048 JLINK_ReadMem (0x48040114, 0x0028 Bytes, ...) -- CPU is running -- CPU_ReadMem(40 bytes @ 0x48040114) - Data: 00 00 00 00 00 00 00 00 00 00 00 00 00 00 00 00 ...  returns 0x00 (0001ms, 0483ms total)
T2C08 019:049 JLINK_ReadMem (0x4804013C, 0x0004 Bytes, ...) -- CPU is running -- CPU_ReadMem(4 bytes @ 0x4804013C) - Data: 00 FA 00 00  returns 0x00 (0000ms, 0483ms total)
T2C08 019:049 JLINK_ReadMem (0x48040170, 0x0004 Bytes, ...) -- CPU is running -- CPU_ReadMem(4 bytes @ 0x48040170) - Data: 9F 02 00 00  returns 0x00 (0001ms, 0484ms total)
T2C08 019:050 JLINK_ReadMem (0x480401A0, 0x0008 Bytes, ...) -- CPU is running -- CPU_ReadMem(8 bytes @ 0x480401A0) - Data: 05 00 00 00 00 00 00 00  returns 0x00 (0000ms, 0484ms total)
T2C08 019:050 JLINK_ReadMem (0x480401A8, 0x0004 Bytes, ...) -- CPU is running -- CPU_ReadMem(4 bytes @ 0x480401A8) - Data: 00 00 00 00  returns 0x00 (0000ms, 0484ms total)
T32E8 019:059 JLINK_IsHalted()  returns FALSE (0000ms, 0484ms total)
T32E8 019:160 JLINK_IsHalted()  returns FALSE (0000ms, 0484ms total)
T32E8 019:260 JLINK_IsHalted()  returns FALSE (0001ms, 0485ms total)
T32E8 019:362 JLINK_IsHalted()  returns FALSE (0000ms, 0484ms total)
T32E8 019:462 JLINK_IsHalted()  returns FALSE (0001ms, 0485ms total)
T2C08 019:564 JLINK_ReadMem (0x48040100, 0x0008 Bytes, ...) -- CPU is running -- CPU_ReadMem(8 bytes @ 0x48040100) - Data: 00 00 00 00 00 00 00 00  returns 0x00 (0000ms, 0484ms total)
T2C08 019:564 JLINK_ReadMem (0x48040108, 0x0004 Bytes, ...) -- CPU is running -- CPU_ReadMem(4 bytes @ 0x48040108) - Data: 01 00 00 00  returns 0x00 (0001ms, 0485ms total)
T2C08 019:565 JLINK_ReadMem (0x48040114, 0x0028 Bytes, ...) -- CPU is running -- CPU_ReadMem(40 bytes @ 0x48040114) - Data: 00 00 00 00 00 00 00 00 00 00 00 00 00 00 00 00 ...  returns 0x00 (0001ms, 0486ms total)
T2C08 019:566 JLINK_ReadMem (0x4804013C, 0x0004 Bytes, ...) -- CPU is running -- CPU_ReadMem(4 bytes @ 0x4804013C) - Data: 00 FA 00 00  returns 0x00 (0001ms, 0487ms total)
T2C08 019:567 JLINK_ReadMem (0x48040170, 0x0004 Bytes, ...) -- CPU is running -- CPU_ReadMem(4 bytes @ 0x48040170) - Data: 87 15 00 00  returns 0x00 (0000ms, 0487ms total)
T2C08 019:567 JLINK_ReadMem (0x480401A0, 0x0008 Bytes, ...) -- CPU is running -- CPU_ReadMem(8 bytes @ 0x480401A0) - Data: 05 00 00 00 00 00 00 00  returns 0x00 (0001ms, 0488ms total)
T2C08 019:568 JLINK_ReadMem (0x480401A8, 0x0004 Bytes, ...) -- CPU is running -- CPU_ReadMem(4 bytes @ 0x480401A8) - Data: 00 00 00 00  returns 0x00 (0000ms, 0488ms total)
T32E8 019:574 JLINK_IsHalted()  returns FALSE (0001ms, 0489ms total)
T32E8 019:676 JLINK_IsHalted()  returns FALSE (0000ms, 0488ms total)
T32E8 019:777 JLINK_IsHalted()  returns FALSE (0000ms, 0488ms total)
T32E8 019:878 JLINK_IsHalted()  returns FALSE (0000ms, 0488ms total)
T32E8 019:980 JLINK_IsHalted()  returns FALSE (0000ms, 0488ms total)
T2C08 020:081 JLINK_ReadMem (0x48040100, 0x0008 Bytes, ...) -- CPU is running -- CPU_ReadMem(8 bytes @ 0x48040100) - Data: 00 00 00 00 00 00 00 00  returns 0x00 (0000ms, 0488ms total)
T2C08 020:081 JLINK_ReadMem (0x48040108, 0x0004 Bytes, ...) -- CPU is running -- CPU_ReadMem(4 bytes @ 0x48040108) - Data: 01 00 00 00  returns 0x00 (0001ms, 0489ms total)
T2C08 020:082 JLINK_ReadMem (0x48040114, 0x0028 Bytes, ...) -- CPU is running -- CPU_ReadMem(40 bytes @ 0x48040114) - Data: 00 00 00 00 00 00 00 00 00 00 00 00 00 00 00 00 ...  returns 0x00 (0002ms, 0491ms total)
T2C08 020:084 JLINK_ReadMem (0x4804013C, 0x0004 Bytes, ...) -- CPU is running -- CPU_ReadMem(4 bytes @ 0x4804013C) - Data: 00 FA 00 00  returns 0x00 (0001ms, 0492ms total)
T2C08 020:085 JLINK_ReadMem (0x48040170, 0x0004 Bytes, ...) -- CPU is running -- CPU_ReadMem(4 bytes @ 0x48040170) - Data: 6B 7E 00 00  returns 0x00 (0000ms, 0492ms total)
T2C08 020:085 JLINK_ReadMem (0x480401A0, 0x0008 Bytes, ...) -- CPU is running -- CPU_ReadMem(8 bytes @ 0x480401A0) - Data: 05 00 00 00 00 00 00 00  returns 0x00 (0002ms, 0494ms total)
T2C08 020:087 JLINK_ReadMem (0x480401A8, 0x0004 Bytes, ...) -- CPU is running -- CPU_ReadMem(4 bytes @ 0x480401A8) - Data: 00 00 00 00  returns 0x00 (0001ms, 0495ms total)
T32E8 020:096 JLINK_IsHalted()  returns FALSE (0000ms, 0495ms total)
T32E8 020:197 JLINK_IsHalted()  returns FALSE (0000ms, 0495ms total)
T32E8 020:298 JLINK_IsHalted()  returns FALSE (0000ms, 0495ms total)
T32E8 020:399 JLINK_IsHalted()  returns FALSE (0000ms, 0495ms total)
T32E8 020:501 JLINK_IsHalted()  returns FALSE (0001ms, 0496ms total)
T2C08 020:602 JLINK_ReadMem (0x48040100, 0x0008 Bytes, ...) -- CPU is running -- CPU_ReadMem(8 bytes @ 0x48040100) - Data: 00 00 00 00 00 00 00 00  returns 0x00 (0000ms, 0495ms total)
T2C08 020:602 JLINK_ReadMem (0x48040108, 0x0004 Bytes, ...) -- CPU is running -- CPU_ReadMem(4 bytes @ 0x48040108) - Data: 01 00 00 00  returns 0x00 (0001ms, 0496ms total)
T2C08 020:603 JLINK_ReadMem (0x48040114, 0x0028 Bytes, ...) -- CPU is running -- CPU_ReadMem(40 bytes @ 0x48040114) - Data: 00 00 00 00 00 00 00 00 00 00 00 00 00 00 00 00 ...  returns 0x00 (0001ms, 0497ms total)
T2C08 020:604 JLINK_ReadMem (0x4804013C, 0x0004 Bytes, ...) -- CPU is running -- CPU_ReadMem(4 bytes @ 0x4804013C) - Data: 00 FA 00 00  returns 0x00 (0001ms, 0498ms total)
T2C08 020:605 JLINK_ReadMem (0x48040170, 0x0004 Bytes, ...) -- CPU is running -- CPU_ReadMem(4 bytes @ 0x48040170) - Data: F5 85 00 00  returns 0x00 (0002ms, 0500ms total)
T2C08 020:607 JLINK_ReadMem (0x480401A0, 0x0008 Bytes, ...) -- CPU is running -- CPU_ReadMem(8 bytes @ 0x480401A0) - Data: 05 00 00 00 00 00 00 00  returns 0x00 (0001ms, 0501ms total)
T2C08 020:608 JLINK_ReadMem (0x480401A8, 0x0004 Bytes, ...) -- CPU is running -- CPU_ReadMem(4 bytes @ 0x480401A8) - Data: 00 00 00 00  returns 0x00 (0000ms, 0501ms total)
T32E8 020:617 JLINK_IsHalted()  returns FALSE (0001ms, 0502ms total)
T32E8 020:718 JLINK_IsHalted()  returns FALSE (0000ms, 0501ms total)
T32E8 020:819 JLINK_IsHalted()  returns FALSE (0000ms, 0501ms total)
T32E8 020:920 JLINK_IsHalted()  returns FALSE (0000ms, 0501ms total)
T32E8 021:021 JLINK_IsHalted()  returns FALSE (0000ms, 0501ms total)
T2C08 021:123 JLINK_ReadMem (0x48040100, 0x0008 Bytes, ...) -- CPU is running -- CPU_ReadMem(8 bytes @ 0x48040100) - Data: 00 00 00 00 00 00 00 00  returns 0x00 (0000ms, 0501ms total)
T2C08 021:123 JLINK_ReadMem (0x48040108, 0x0004 Bytes, ...) -- CPU is running -- CPU_ReadMem(4 bytes @ 0x48040108) - Data: 01 00 00 00  returns 0x00 (0002ms, 0503ms total)
T2C08 021:125 JLINK_ReadMem (0x48040114, 0x0028 Bytes, ...) -- CPU is running -- CPU_ReadMem(40 bytes @ 0x48040114) - Data: 00 00 00 00 00 00 00 00 00 00 00 00 00 00 00 00 ...  returns 0x00 (0001ms, 0504ms total)
T2C08 021:126 JLINK_ReadMem (0x4804013C, 0x0004 Bytes, ...) -- CPU is running -- CPU_ReadMem(4 bytes @ 0x4804013C) - Data: 00 FA 00 00  returns 0x00 (0001ms, 0505ms total)
T2C08 021:127 JLINK_ReadMem (0x48040170, 0x0004 Bytes, ...) -- CPU is running -- CPU_ReadMem(4 bytes @ 0x48040170) - Data: 2B 83 00 00  returns 0x00 (0000ms, 0505ms total)
T2C08 021:128 JLINK_ReadMem (0x480401A0, 0x0008 Bytes, ...) -- CPU is running -- CPU_ReadMem(8 bytes @ 0x480401A0) - Data: 05 00 00 00 00 00 00 00  returns 0x00 (0001ms, 0506ms total)
T2C08 021:129 JLINK_ReadMem (0x480401A8, 0x0004 Bytes, ...) -- CPU is running -- CPU_ReadMem(4 bytes @ 0x480401A8) - Data: 00 00 00 00  returns 0x00 (0001ms, 0507ms total)
T32E8 021:138 JLINK_IsHalted()  returns FALSE (0001ms, 0508ms total)
T32E8 021:240 JLINK_IsHalted()  returns FALSE (0000ms, 0507ms total)
T32E8 021:341 JLINK_IsHalted()  returns FALSE (0000ms, 0507ms total)
T32E8 021:442 JLINK_IsHalted()  returns FALSE (0001ms, 0508ms total)
T32E8 021:544 JLINK_IsHalted()  returns FALSE (0001ms, 0508ms total)
T2C08 021:648 JLINK_ReadMem (0x48040100, 0x0008 Bytes, ...) -- CPU is running -- CPU_ReadMem(8 bytes @ 0x48040100) - Data: 00 00 00 00 00 00 00 00  returns 0x00 (0000ms, 0507ms total)
T2C08 021:648 JLINK_ReadMem (0x48040108, 0x0004 Bytes, ...) -- CPU is running -- CPU_ReadMem(4 bytes @ 0x48040108) - Data: 01 00 00 00  returns 0x00 (0001ms, 0508ms total)
